Freq.	V(out)
1.00000000000000e+00	(6.68802989305485e+00dB,-1.02853531542370e-04°)
1.12201845430196e+00	(6.68802989305015e+00dB,-1.15403560480612e-04°)
1.25892541179417e+00	(6.68802989304424e+00dB,-1.29484924551319e-04°)
1.41253754462275e+00	(6.68802989303679e+00dB,-1.45284474900365e-04°)
1.58489319246111e+00	(6.68802989302743e+00dB,-1.63011861961621e-04°)
1.77827941003892e+00	(6.68802989301564e+00dB,-1.82902317390839e-04°)
1.99526231496888e+00	(6.68802989300079e+00dB,-2.05219775446799e-04°)
2.23872113856834e+00	(6.68802989298210e+00dB,-2.30260375238565e-04°)
2.51188643150958e+00	(6.68802989295857e+00dB,-2.58356390311532e-04°)
2.81838293126445e+00	(6.68802989292894e+00dB,-2.89880637715487e-04°)
3.16227766016838e+00	(6.68802989289165e+00dB,-3.25251425060335e-04°)
3.54813389233575e+00	(6.68802989284469e+00dB,-3.64938101203925e-04°)
3.98107170553497e+00	(6.68802989278559e+00dB,-4.09467284226203e-04°)
4.46683592150963e+00	(6.68802989271118e+00dB,-4.59429849331149e-04°)
5.01187233627272e+00	(6.68802989261749e+00dB,-5.15488769401693e-04°)
5.62341325190348e+00	(6.68802989249956e+00dB,-5.78387912247010e-04°)
6.30957344480192e+00	(6.68802989235109e+00dB,-6.48961911276302e-04°)
7.07945784384137e+00	(6.68802989216417e+00dB,-7.28147240576919e-04°)
7.94328234724280e+00	(6.68802989192886e+00dB,-8.16994641356347e-04°)
8.91250938133744e+00	(6.68802989163261e+00dB,-9.16683064639372e-04°)
9.99999999999998e+00	(6.68802989125966e+00dB,-1.02853531523153e-03°)
1.12201845430196e+01	(6.68802989079015e+00dB,-1.15403560453468e-03°)
1.25892541179416e+01	(6.68802989019907e+00dB,-1.29484924512977e-03°)
1.41253754462275e+01	(6.68802988945494e+00dB,-1.45284474846206e-03°)
1.58489319246111e+01	(6.68802988851813e+00dB,-1.63011861885119e-03°)
1.77827941003892e+01	(6.68802988733877e+00dB,-1.82902317282777e-03°)
1.99526231496888e+01	(6.68802988585404e+00dB,-2.05219775294158e-03°)
2.23872113856833e+01	(6.68802988398487e+00dB,-2.30260375022954e-03°)
2.51188643150957e+01	(6.68802988163172e+00dB,-2.58356390006973e-03°)
2.81838293126445e+01	(6.68802987866929e+00dB,-2.89880637285286e-03°)
3.16227766016837e+01	(6.68802987493981e+00dB,-3.25251424452661e-03°)
3.54813389233575e+01	(6.68802987024467e+00dB,-3.64938100345562e-03°)
3.98107170553496e+01	(6.68802986433384e+00dB,-4.09467283013733e-03°)
4.46683592150962e+01	(6.68802985689255e+00dB,-4.59429847618489e-03°)
5.01187233627271e+01	(6.68802984752452e+00dB,-5.15488766982498e-03°)
5.62341325190347e+01	(6.68802983573086e+00dB,-5.78387908829806e-03°)
6.30957344480191e+01	(6.68802982088353e+00dB,-6.48961906449373e-03°)
7.07945784384136e+01	(6.68802980219185e+00dB,-7.28147233758701e-03°)
7.94328234724279e+01	(6.68802977866041e+00dB,-8.16994631725358e-03°)
8.91250938133743e+01	(6.68802974903609e+00dB,-9.16683051035240e-03°)
9.99999999999997e+01	(6.68802971174128e+00dB,-1.02853529601519e-02°)
1.12201845430196e+02	(6.68802966478989e+00dB,-1.15403557739087e-02°)
1.25892541179416e+02	(6.68802960568161e+00dB,-1.29484920678813e-02°)
1.41253754462275e+02	(6.68802953126868e+00dB,-1.45284469430304e-02°)
1.58489319246111e+02	(6.68802943758837e+00dB,-1.63011854234955e-02°)
1.77827941003892e+02	(6.68802931965183e+00dB,-1.82902306476633e-02°)
1.99526231496887e+02	(6.68802917117854e+00dB,-2.05219760030074e-02°)
2.23872113856833e+02	(6.68802898426175e+00dB,-2.30260353461863e-02°)
2.51188643150957e+02	(6.68802874894748e+00dB,-2.58356359551124e-02°)
2.81838293126444e+02	(6.68802845270437e+00dB,-2.89880594265257e-02°)
3.16227766016837e+02	(6.68802807975645e+00dB,-3.25251363685259e-02°)
3.54813389233574e+02	(6.68802761024287e+00dB,-3.64938014509333e-02°)
3.98107170553496e+02	(6.68802701916041e+00dB,-4.09467161766850e-02°)
4.46683592150961e+02	(6.68802627503183e+00dB,-4.59429676352737e-02°)
5.01187233627270e+02	(6.68802533822971e+00dB,-5.15488525063233e-02°)
5.62341325190347e+02	(6.68802415886608e+00dB,-5.78387567109831e-02°)
6.30957344480191e+02	(6.68802267413586e+00dB,-6.48961423757205e-02°)
7.07945784384135e+02	(6.68802080497224e+00dB,-7.28146551938113e-02°)
7.94328234724278e+02	(6.68801845183618e+00dB,-8.16993668628574e-02°)
8.91250938133742e+02	(6.68801548941584e+00dB,-9.16681690625576e-02°)
9.99999999999995e+02	(6.68801175995348e+00dB,-1.02853337438671e-01°)
1.12201845430196e+03	(6.68800706484466e+00dB,-1.15403286302071e-01°)
1.25892541179416e+03	(6.68800115406259e+00dB,-1.29484537264232e-01°)
1.41253754462275e+03	(6.68799371284423e+00dB,-1.45283927843517e-01°)
1.58489319246111e+03	(6.68798434492977e+00dB,-1.63011089224532e-01°)
1.77827941003891e+03	(6.68797255146289e+00dB,-1.82901225872910e-01°)
1.99526231496887e+03	(6.68795770442908e+00dB,-2.05218233640692e-01°)
2.23872113856833e+03	(6.68793901321812e+00dB,-2.30258197386575e-01°)
2.51188643150957e+03	(6.68791548253173e+00dB,-2.58353314026316e-01°)
2.81838293126444e+03	(6.68788585939683e+00dB,-2.89876292369324e-01°)
3.16227766016836e+03	(6.68784856646648e+00dB,-3.25245287135220e-01°)
3.54813389233573e+03	(6.68780161806205e+00dB,-3.64929431224467e-01°)
3.98107170553495e+03	(6.68774251449462e+00dB,-4.09455037679561e-01°)
4.46683592150961e+03	(6.68766810905202e+00dB,-4.59412550846246e-01°)
5.01187233627269e+03	(6.68757444059079e+00dB,-5.15464335037105e-01°)
5.62341325190346e+03	(6.68745652285354e+00dB,-5.78353398491689e-01°)
6.30957344480189e+03	(6.68730807934894e+00dB,-6.48913160549459e-01°)
7.07945784384134e+03	(6.68712120976551e+00dB,-7.28078380564702e-01°)
7.94328234724277e+03	(6.68688597029656e+00dB,-8.16897377950823e-01°)
8.91250938133740e+03	(6.68658984575268e+00dB,-9.16545683445591e-01°)
9.99999999999994e+03	(6.68621708570654e+00dB,-1.02834127161615e+00°)
1.12201845430196e+04	(6.68574786988240e+00dB,-1.15376153282970e+00°)
1.25892541179416e+04	(6.68515725923914e+00dB,-1.29446214800316e+00°)
1.41253754462275e+04	(6.68441387830401e+00dB,-1.45229802936604e+00°)
1.58489319246110e+04	(6.68347826082745e+00dB,-1.62934648226920e+00°)
1.77827941003891e+04	(6.68230077420221e+00dB,-1.82793272251806e+00°)
1.99526231496887e+04	(6.68081901771576e+00dB,-2.05065784480354e+00°)
2.23872113856832e+04	(6.67895456493011e+00dB,-2.30042927211240e+00°)
2.51188643150956e+04	(6.67660889067049e+00dB,-2.58049361175770e+00°)
2.81838293126443e+04	(6.67365828772932e+00dB,-2.89447168463564e+00°)
3.16227766016836e+04	(6.66994753722763e+00dB,-3.24639525829690e+00°)
3.54813389233573e+04	(6.66528205000177e+00dB,-3.64074467152061e+00°)
3.98107170553494e+04	(6.65941814588046e+00dB,-4.08248604871159e+00°)
4.46683592150960e+04	(6.65205108665955e+00dB,-4.57710611541939e+00°)
5.01187233627269e+04	(6.64280043343671e+00dB,-5.13064167756540e+00°)
5.62341325190345e+04	(6.63119227107082e+00dB,-5.74969954034501e+00°)
6.30957344480188e+04	(6.61663785059773e+00dB,-6.44146093464696e+00°)
7.07945784384133e+04	(6.59840827392665e+00dB,-7.21366231100941e+00°)
7.94328234724275e+04	(6.57560502838152e+00dB,-8.07454160774335e+00°)
8.91250938133739e+04	(6.54712653510953e+00dB,-9.03273583741627e+00°)
9.99999999999992e+04	(6.51163149055206e+00dB,-1.00971122682823e+01°)
1.12201845430195e+05	(6.46750075963857e+00dB,-1.12765121076084e+01°)
1.25892541179416e+05	(6.41280103583156e+00dB,-1.25793834083120e+01°)
1.41253754462274e+05	(6.34525550269181e+00dB,-1.40132806048666e+01°)
1.58489319246110e+05	(6.26222930650578e+00dB,-1.55842142029009e+01°)
1.77827941003891e+05	(6.16074056705189e+00dB,-1.72958491143310e+01°)
1.99526231496886e+05	(6.03751034560828e+00dB,-1.91485776884328e+01°)
2.23872113856832e+05	(5.88906638490156e+00dB,-2.11385363015625e+01°)
2.51188643150956e+05	(5.71191392626200e+00dB,-2.32566914492071e+01°)
2.81838293126443e+05	(5.50278060678851e+00dB,-2.54881845627880e+01°)
3.16227766016835e+05	(5.25892991193841e+00dB,-2.78121762781506e+01°)
3.54813389233572e+05	(4.97851914021901e+00dB,-3.02024434969416e+01°)
3.98107170553494e+05	(4.66095646000943e+00dB,-3.26289276275989e+01°)
4.46683592150959e+05	(4.30719373657085e+00dB,-3.50602944217308e+01°)
5.01187233627268e+05	(3.91988529840558e+00dB,-3.74673586267600e+01°)
5.62341325190344e+05	(3.50335371888782e+00dB,-3.98269988348442e+01°)
6.30957344480187e+05	(3.06333254828223e+00dB,-4.21260087699729e+01°)
7.07945784384131e+05	(2.60649668378046e+00dB,-4.43642616949934e+01°)
7.94328234724274e+05	(2.13983353851682e+00dB,-4.65566309716789e+01°)
8.91250938133737e+05	(1.66994238147689e+00dB,-4.87332982992035e+01°)
9.99999999999990e+05	(1.20236837617889e+00dB,-5.09383522532782e+01°)
1.12201845430195e+06	(7.41078696824766e-01dB,-5.32268856904687e+01°)
1.25892541179415e+06	(2.88170104485354e-01dB,-5.56610930448818e+01°)
1.41253754462274e+06	(-1.56137369257514e-01dB,-5.83061005379378e+01°)
1.58489319246110e+06	(-5.93212196367785e-01dB,-6.12263965931042e+01°)
1.77827941003891e+06	(-1.02547036488155e+00dB,-6.44837549352635e+01°)
1.99526231496886e+06	(-1.45567132950649e+00dB,-6.81374839565346e+01°)
2.23872113856832e+06	(-1.88618561226835e+00dB,-7.22477472889391e+01°)
2.51188643150955e+06	(-2.31842021112462e+00dB,-7.68826440262264e+01°)
2.81838293126442e+06	(-2.75267099293637e+00dB,-8.21297484632938e+01°)
3.16227766016835e+06	(-3.18883940598707e+00dB,-8.81128137139098e+01°)
3.54813389233572e+06	(-3.62880751489360e+00dB,-9.50138686060492e+01°)
3.98107170553493e+06	(-4.08196448294497e+00dB,-1.03098223866257e+02°)
4.46683592150958e+06	(-4.57642005440576e+00dB,-1.12729679803767e+02°)
5.01187233627267e+06	(-5.17852325129509e+00dB,-1.24333892019740e+02°)
5.50000000000000e+06	(-5.82817782211934e+00dB,-1.35360847944622e+02°)
