Freq.	V(out)
1.00000000000000e+00	(1.57492956560658e+01dB,-1.66264767235199e-04°)
1.12201845430196e+00	(1.57492956560576e+01dB,-1.86552137138003e-04°)
1.25892541179417e+00	(1.57492956560471e+01dB,-2.09314940558154e-04°)
1.41253754462275e+00	(1.57492956560340e+01dB,-2.34855226067147e-04°)
1.58489319246111e+00	(1.57492956560175e+01dB,-2.63511897736288e-04°)
1.77827941003892e+00	(1.57492956559968e+01dB,-2.95665212187808e-04°)
1.99526231496888e+00	(1.57492956559706e+01dB,-3.31741824369206e-04°)
2.23872113856834e+00	(1.57492956559377e+01dB,-3.72220449005174e-04°)
2.51188643150958e+00	(1.57492956558963e+01dB,-4.17638212851130e-04°)
2.81838293126445e+00	(1.57492956558441e+01dB,-4.68597782038911e-04°)
3.16227766016838e+00	(1.57492956557784e+01dB,-5.25775359090158e-04°)
3.54813389233575e+00	(1.57492956556958e+01dB,-5.89929655712910e-04°)
3.98107170553497e+00	(1.57492956555917e+01dB,-6.61911960444962e-04°)
4.46683592150963e+00	(1.57492956554607e+01dB,-7.42677434735478e-04°)
5.01187233627272e+00	(1.57492956552957e+01dB,-8.33297787357018e-04°)
5.62341325190348e+00	(1.57492956550880e+01dB,-9.34975495329680e-04°)
6.30957344480192e+00	(1.57492956548266e+01dB,-1.04905976006041e-03°)
7.07945784384137e+00	(1.57492956544974e+01dB,-1.17706441042566e-03°)
7.94328234724280e+00	(1.57492956540831e+01dB,-1.32068799036051e-03°)
8.91250938133744e+00	(1.57492956535614e+01dB,-1.48183629750418e-03°)
9.99999999999998e+00	(1.57492956529047e+01dB,-1.66264767197609e-03°)
1.12201845430196e+01	(1.57492956520779e+01dB,-1.86552137084907e-03°)
1.25892541179416e+01	(1.57492956510371e+01dB,-2.09314940483154e-03°)
1.41253754462275e+01	(1.57492956497268e+01dB,-2.34855225961207e-03°)
1.58489319246111e+01	(1.57492956480772e+01dB,-2.63511897586643e-03°)
1.77827941003892e+01	(1.57492956460004e+01dB,-2.95665211976428e-03°)
1.99526231496888e+01	(1.57492956433860e+01dB,-3.31741824070624e-03°)
2.23872113856833e+01	(1.57492956400945e+01dB,-3.72220448583416e-03°)
2.51188643150957e+01	(1.57492956359509e+01dB,-4.17638212255382e-03°)
2.81838293126445e+01	(1.57492956307344e+01dB,-4.68597781197395e-03°)
3.16227766016837e+01	(1.57492956241672e+01dB,-5.25775357901485e-03°)
3.54813389233575e+01	(1.57492956158995e+01dB,-5.89929654033865e-03°)
3.98107170553496e+01	(1.57492956054912e+01dB,-6.61911958073247e-03°)
4.46683592150962e+01	(1.57492955923878e+01dB,-7.42677431385343e-03°)
5.01187233627271e+01	(1.57492955758917e+01dB,-8.33297782624827e-03°)
5.62341325190347e+01	(1.57492955551243e+01dB,-9.34975488645283e-03°)
6.30957344480191e+01	(1.57492955289798e+01dB,-1.04905975061844e-02°)
7.07945784384136e+01	(1.57492954960657e+01dB,-1.17706439708853e-02°)
7.94328234724279e+01	(1.57492954546293e+01dB,-1.32068797152132e-02°)
8.91250938133743e+01	(1.57492954024640e+01dB,-1.48183627089312e-02°)
9.99999999999997e+01	(1.57492953367918e+01dB,-1.66264763438697e-02°)
1.12201845430196e+02	(1.57492952541154e+01dB,-1.86552131775302e-02°)
1.25892541179416e+02	(1.57492951500319e+01dB,-2.09314932983138e-02°)
1.41253754462275e+02	(1.57492950189986e+01dB,-2.34855215367153e-02°)
1.58489319246111e+02	(1.57492948540375e+01dB,-2.63511882622145e-02°)
1.77827941003892e+02	(1.57492946463637e+01dB,-2.95665190838515e-02°)
1.99526231496887e+02	(1.57492943849179e+01dB,-3.31741794212529e-02°)
2.23872113856833e+02	(1.57492940557772e+01dB,-3.72220406407738e-02°)
2.51188643150957e+02	(1.57492936414137e+01dB,-4.17638152680656e-02°)
2.81838293126444e+02	(1.57492931197609e+01dB,-4.68597697045864e-02°)
3.16227766016837e+02	(1.57492924630391e+01dB,-5.25775239034299e-02°)
3.54813389233574e+02	(1.57492916362755e+01dB,-5.89929486129523e-02°)
3.98107170553496e+02	(1.57492905954419e+01dB,-6.61911720902094e-02°)
4.46683592150961e+02	(1.57492892851105e+01dB,-7.42677096372247e-02°)
5.01187233627270e+02	(1.57492876355015e+01dB,-8.33297309406358e-02°)
5.62341325190347e+02	(1.57492855587677e+01dB,-9.34974820206623e-02°)
6.30957344480191e+02	(1.57492829443162e+01dB,-1.04905880642408e-01°)
7.07945784384135e+02	(1.57492796529189e+01dB,-1.17706306337916e-01°)
7.94328234724278e+02	(1.57492755092988e+01dB,-1.32068608760784e-01°)
8.91250938133742e+02	(1.57492702927958e+01dB,-1.48183360979654e-01°)
9.99999999999995e+02	(1.57492637256164e+01dB,-1.66264387549158e-01°)
1.12201845430196e+03	(1.57492554580415e+01dB,-1.86551600817826e-01°)
1.25892541179416e+03	(1.57492450498036e+01dB,-2.09314182986854e-01°)
1.41253754462275e+03	(1.57492319466438e+01dB,-2.34854155971176e-01°)
1.58489319246111e+03	(1.57492154507988e+01dB,-2.63510386188987e-01°)
1.77827941003891e+03	(1.57491946838491e+01dB,-2.95663077076603e-01°)
1.99526231496887e+03	(1.57491685399490e+01dB,-3.31738808455331e-01°)
2.23872113856833e+03	(1.57491356269516e+01dB,-3.72216188932910e-01°)
2.51188643150957e+03	(1.57490941922959e+01dB,-4.17632195373465e-01°)
2.81838293126444e+03	(1.57490420297146e+01dB,-4.68589282186867e-01°)
3.16227766016836e+03	(1.57489763618023e+01dB,-5.25763352838640e-01°)
3.54813389233573e+03	(1.57488936922046e+01dB,-5.89912696625021e-01°)
3.98107170553495e+03	(1.57487896195749e+01dB,-6.61888005440058e-01°)
4.46683592150961e+03	(1.57486586034273e+01dB,-7.42643598002419e-01°)
5.01187233627269e+03	(1.57484936694650e+01dB,-8.33249992787211e-01°)
5.62341325190346e+03	(1.57482860387759e+01dB,-9.34907985636541e-01°)
6.30957344480189e+03	(1.57480246612773e+01dB,-1.04896440351806e+00°)
7.07945784384134e+03	(1.57476956287708e+01dB,-1.17692972183522e+00°)
7.94328234724277e+03	(1.57472814366750e+01dB,-1.32049774852607e+00°)
8.91250938133740e+03	(1.57467600556369e+01dB,-1.48156759307320e+00°)
9.99999999999994e+03	(1.57461037643992e+01dB,-1.66226815119794e+00°)
1.12201845430196e+04	(1.57452776830616e+01dB,-1.86498534451492e+00°)
1.25892541179416e+04	(1.57442379306735e+01dB,-2.09239235597627e+00°)
1.41253754462275e+04	(1.57429293122789e+01dB,-2.34748309249053e+00°)
1.58489319246110e+04	(1.57412824173579e+01dB,-2.63360907986892e+00°)
1.77827941003891e+04	(1.57392099832291e+01dB,-2.95451994402937e+00°)
1.99526231496887e+04	(1.57366023425137e+01dB,-3.31440754465845e+00°)
2.23872113856832e+04	(1.57333217323494e+01dB,-3.71795368727851e+00°)
2.51188643150956e+04	(1.57291951940013e+01dB,-4.17038112484875e+00°)
2.81838293126443e+04	(1.57240057346006e+01dB,-4.67750724068648e+00°)
3.16227766016836e+04	(1.57174813585765e+01dB,-5.24579934052881e+00°)
3.54813389233573e+04	(1.57092815071288e+01dB,-5.88242982036627e+00°)
3.98107170553494e+04	(1.56989803746648e+01dB,-6.59532855112609e+00°)
4.46683592150960e+04	(1.56860465106424e+01dB,-7.39322854896103e+00°)
5.01187233627269e+04	(1.56698180795062e+01dB,-8.28569928560784e+00°)
5.62341325190345e+04	(1.56494731660710e+01dB,-9.28315973798336e+00°)
6.30957344480188e+04	(1.56239946185213e+01dB,-1.03968603978939e+01°)
7.07945784384133e+04	(1.55921291745906e+01dB,-1.16388199375449e+01°)
7.94328234724275e+04	(1.55523410996378e+01dB,-1.30216981610859e+01°)
8.91250938133739e+04	(1.55027613827729e+01dB,-1.45585826204245e+01°)
9.99999999999992e+04	(1.54411348088279e+01dB,-1.62626626050569e+01°)
1.12201845430195e+05	(1.53647690598884e+01dB,-1.81467625301606e+01°)
1.25892541179416e+05	(1.52704924460424e+01dB,-2.02227092786842e+01°)
1.41253754462274e+05	(1.51546298069042e+01dB,-2.25005179343270e+01°)
1.58489319246110e+05	(1.50130091514678e+01dB,-2.49874012760641e+01°)
1.77827941003891e+05	(1.48410138530425e+01dB,-2.76866435813555e+01°)
1.99526231496886e+05	(1.46336953015681e+01dB,-3.05964292159145e+01°)
2.23872113856832e+05	(1.43859570828156e+01dB,-3.37087758505227e+01°)
2.51188643150956e+05	(1.40928124633148e+01dB,-3.70087767621438e+01°)
2.81838293126443e+05	(1.37497019555748e+01dB,-4.04743832029606e+01°)
3.16227766016835e+05	(1.33528392796264e+01dB,-4.40769294644643e+01°)
3.54813389233572e+05	(1.28995374380778e+01dB,-4.77825028851755e+01°)
3.98107170553494e+05	(1.23884590471544e+01dB,-5.15540972291980e+01°)
4.46683592150959e+05	(1.18197423015573e+01dB,-5.53543028659399e+01°)
5.01187233627268e+05	(1.11949765820478e+01dB,-5.91481456833558e+01°)
5.62341325190344e+05	(1.05170334602934e+01dB,-6.29056457096180e+01°)
6.30957344480187e+05	(9.78978895596630e+00dB,-6.66037439005809e+01°)
7.07945784384131e+05	(9.01779147836698e+00dB,-7.02274099263362e+01°)
7.94328234724274e+05	(8.20593268456636e+00dB,-7.37699329540531e+01°)
8.91250938133737e+05	(7.35916793550591e+00dB,-7.72325524327613e+01°)
9.99999999999990e+05	(6.48231555712787e+00dB,-8.06236763053181e+01°)
1.12201845430195e+06	(5.57994617076481e+00dB,-8.39579623349516e+01°)
1.25892541179415e+06	(4.65635869802914e+00dB,-8.72555271126552e+01°)
1.41253754462274e+06	(3.71562872951787e+00dB,-9.05415227776683e+01°)
1.58489319246110e+06	(2.76170590788676e+00dB,-9.38463005143628e+01°)
1.77827941003891e+06	(1.79852709961357e+00dB,-9.72063663540882e+01°)
1.99526231496886e+06	(8.30098989332388e-01dB,-1.00666322239980e+02°)
2.23872113856832e+06	(-1.39514665512045e-01dB,-1.04281963466633e+02°)
2.51188643150955e+06	(-1.10639256722051e+00dB,-1.08124662751358e+02°)
2.81838293126442e+06	(-2.06727608851743e+00dB,-1.12287090801730e+02°)
3.16227766016835e+06	(-3.02061807118852e+00dB,-1.16890120434474e+02°)
3.54813389233572e+06	(-3.96849617524935e+00dB,-1.22090161659612e+02°)
3.98107170553493e+06	(-4.91991188892572e+00dB,-1.28084468067301e+02°)
4.46683592150958e+06	(-5.89612062673199e+00dB,-1.35107704331562e+02°)
5.01187233627267e+06	(-6.93818239975202e+00dB,-1.43404526681581e+02°)
5.50000000000000e+06	(-7.87316080140379e+00dB,-1.51157844472642e+02°)
