Freq.	V(out)
1.00000000000000e+00	(1.59891831124777e+01dB,-1.67870990881746e-04°)
1.12201845430196e+00	(1.59891831124693e+01dB,-1.88354349711163e-04°)
1.25892541179417e+00	(1.59891831124588e+01dB,-2.11337056323812e-04°)
1.41253754462275e+00	(1.59891831124455e+01dB,-2.37124077272946e-04°)
1.58489319246111e+00	(1.59891831124288e+01dB,-2.66057590659253e-04°)
1.77827941003892e+00	(1.59891831124077e+01dB,-2.98521526626352e-04°)
1.99526231496888e+00	(1.59891831123812e+01dB,-3.34946661880530e-04°)
2.23872113856834e+00	(1.59891831123479e+01dB,-3.75816335835901e-04°)
2.51188643150958e+00	(1.59891831123059e+01dB,-4.21672864234763e-04°)
2.81838293126445e+00	(1.59891831122531e+01dB,-4.73124735347987e-04°)
3.16227766016838e+00	(1.59891831121865e+01dB,-5.30854684244656e-04°)
3.54813389233575e+00	(1.59891831121028e+01dB,-5.95628752271589e-04°)
3.98107170553497e+00	(1.59891831119973e+01dB,-6.68306451956551e-04°)
4.46683592150963e+00	(1.59891831118646e+01dB,-7.49852172217221e-04°)
5.01187233627272e+00	(1.59891831116974e+01dB,-8.41347975216111e-04°)
5.62341325190348e+00	(1.59891831114870e+01dB,-9.44007954667907e-04°)
6.30957344480192e+00	(1.59891831112222e+01dB,-1.05919434612524e-03°)
7.07945784384137e+00	(1.59891831108887e+01dB,-1.18843560301657e-03°)
7.94328234724280e+00	(1.59891831104689e+01dB,-1.33344667829416e-03°)
8.91250938133744e+00	(1.59891831099404e+01dB,-1.49615178081732e-03°)
9.99999999999998e+00	(1.59891831092750e+01dB,-1.67870990843415e-03°)
1.12201845430196e+01	(1.59891831084374e+01dB,-1.88354349657019e-03°)
1.25892541179416e+01	(1.59891831073829e+01dB,-2.11337056247332e-03°)
1.41253754462275e+01	(1.59891831060553e+01dB,-2.37124077164915e-03°)
1.58489319246111e+01	(1.59891831043840e+01dB,-2.66057590506655e-03°)
1.77827941003892e+01	(1.59891831022800e+01dB,-2.98521526410802e-03°)
1.99526231496888e+01	(1.59891830996311e+01dB,-3.34946661576056e-03°)
2.23872113856833e+01	(1.59891830962965e+01dB,-3.75816335405821e-03°)
2.51188643150957e+01	(1.59891830920983e+01dB,-4.21672863627259e-03°)
2.81838293126445e+01	(1.59891830868132e+01dB,-4.73124734489866e-03°)
3.16227766016837e+01	(1.59891830801597e+01dB,-5.30854683032528e-03°)
3.54813389233575e+01	(1.59891830717833e+01dB,-5.95628750559413e-03°)
3.98107170553496e+01	(1.59891830612382e+01dB,-6.68306449538038e-03°)
4.46683592150962e+01	(1.59891830479626e+01dB,-7.49852168800982e-03°)
5.01187233627271e+01	(1.59891830312496e+01dB,-8.41347970390545e-03°)
5.62341325190347e+01	(1.59891830102092e+01dB,-9.44007947851614e-03°)
6.30957344480191e+01	(1.59891829837209e+01dB,-1.05919433649697e-02°)
7.07945784384136e+01	(1.59891829503742e+01dB,-1.18843558941628e-02°)
7.94328234724279e+01	(1.59891829083931e+01dB,-1.33344665908324e-02°)
8.91250938133743e+01	(1.59891828555420e+01dB,-1.49615175368118e-02°)
9.99999999999997e+01	(1.59891827890065e+01dB,-1.67870987010333e-02°)
1.12201845430196e+02	(1.59891827052432e+01dB,-1.88354344242647e-02°)
1.25892541179416e+02	(1.59891825997914e+01dB,-2.11337048599328e-02°)
1.41253754462275e+02	(1.59891824670356e+01dB,-2.37124066361822e-02°)
1.58489319246111e+02	(1.59891822999058e+01dB,-2.66057575246881e-02°)
1.77827941003892e+02	(1.59891820895020e+01dB,-2.98521504855799e-02°)
1.99526231496887e+02	(1.59891818246193e+01dB,-3.34946631128807e-02°)
2.23872113856833e+02	(1.59891814911517e+01dB,-3.75816292397941e-02°)
2.51188643150957e+02	(1.59891810713409e+01dB,-4.21672802877018e-02°)
2.81838293126444e+02	(1.59891805428305e+01dB,-4.73124648677875e-02°)
3.16227766016837e+02	(1.59891798774754e+01dB,-5.30854561819880e-02°)
3.54813389233574e+02	(1.59891790398431e+01dB,-5.95628579342017e-02°)
3.98107170553496e+02	(1.59891779853267e+01dB,-6.68306207687074e-02°)
4.46683592150961e+02	(1.59891766577696e+01dB,-7.49851827177478e-02°)
5.01187233627270e+02	(1.59891749864749e+01dB,-8.41347487834633e-02°)
5.62341325190347e+02	(1.59891728824404e+01dB,-9.44007266223470e-02°)
6.30957344480191e+02	(1.59891702336193e+01dB,-1.05919337367198e-01°)
7.07945784384135e+02	(1.59891668989534e+01dB,-1.18843422939046e-01°)
7.94328234724278e+02	(1.59891627008613e+01dB,-1.33344473799684e-01°)
8.91250938133742e+02	(1.59891574157824e+01dB,-1.49614904007650e-01°)
9.99999999999995e+02	(1.59891507622712e+01dB,-1.67870603703839e-01°)
1.12201845430196e+03	(1.59891423860114e+01dB,-1.88353802808465e-01°)
1.25892541179416e+03	(1.59891318409480e+01dB,-2.11336283804340e-01°)
1.41253754462275e+03	(1.59891185655359e+01dB,-2.37122986062184e-01°)
1.58489319246111e+03	(1.59891018528397e+01dB,-2.66056049286631e-01°)
1.77827941003891e+03	(1.59890808128928e+01dB,-2.98519349385965e-01°)
1.99526231496887e+03	(1.59890543253133e+01dB,-3.34943586457962e-01°)
2.23872113856833e+03	(1.59890209796550e+01dB,-3.75811991706015e-01°)
2.51188643150957e+03	(1.59889790003209e+01dB,-4.21666728023689e-01°)
2.81838293126444e+03	(1.59889261520449e+01dB,-4.73116067782573e-01°)
3.16227766016836e+03	(1.59888596209177e+01dB,-5.30842441095308e-01°)
3.54813389233573e+03	(1.59887758646337e+01dB,-5.95611458563023e-01°)
3.98107170553495e+03	(1.59886704240061e+01dB,-6.68282024298768e-01°)
4.46683592150961e+03	(1.59885376857445e+01dB,-7.49817667864475e-01°)
5.01187233627269e+03	(1.59883705839170e+01dB,-8.41299237644441e-01°)
5.62341325190346e+03	(1.59881602242816e+01dB,-9.43939113013262e-01°)
6.30957344480189e+03	(1.59878954116147e+01dB,-1.05909710825112e+00°)
7.07945784384134e+03	(1.59875620550759e+01dB,-1.18829825717678e+00°)
7.94328234724277e+03	(1.59871424202786e+01dB,-1.33325268335517e+00°)
8.91250938133740e+03	(1.59866141887627e+01dB,-1.49587777562516e+00°)
9.99999999999994e+03	(1.59859492756254e+01dB,-1.67832290126942e+00°)
1.12201845430196e+04	(1.59851123436675e+01dB,-1.88299689745621e+00°)
1.25892541179416e+04	(1.59840589370314e+01dB,-2.11259858276422e+00°)
1.41253754462275e+04	(1.59827331382597e+01dB,-2.37015052052481e+00°)
1.58489319246110e+04	(1.59810646292553e+01dB,-2.65903623847682e+00°)
1.77827941003891e+04	(1.59789650079257e+01dB,-2.98304105646587e+00°)
1.99526231496887e+04	(1.59763231774549e+01dB,-3.34639658389842e+00°)
2.23872113856832e+04	(1.59729995833181e+01dB,-3.75382880507085e+00°)
2.51188643150956e+04	(1.59688190236655e+01dB,-4.21060945090338e+00°)
2.81838293126443e+04	(1.59635617013491e+01dB,-4.72261002954937e+00°)
3.16227766016836e+04	(1.59569521213302e+01dB,-5.29635741508538e+00°)
3.54813389233573e+04	(1.59486453678179e+01dB,-5.93908921964581e+00°)
3.98107170553494e+04	(1.59382102262702e+01dB,-6.65880623195071e+00°)
4.46683592150960e+04	(1.59251085558094e+01dB,-7.46431791095870e+00°)
5.01187233627269e+04	(1.59086702839040e+01dB,-8.36527518163299e+00°)
5.62341325190345e+04	(1.58880634137207e+01dB,-9.37218249177896e+00°)
6.30957344480188e+04	(1.58622585460167e+01dB,-1.04963781745857e+01°)
7.07945784384133e+04	(1.58299876814525e+01dB,-1.17499686021121e+01°)
7.94328234724275e+04	(1.57896975682829e+01dB,-1.31456975275874e+01°)
8.91250938133739e+04	(1.57394987002693e+01dB,-1.46967277713771e+01°)
9.99999999999992e+04	(1.56771123705864e+01dB,-1.64163088066288e+01°)
1.12201845430195e+05	(1.55998200576940e+01dB,-1.83173022878610e+01°)
1.25892541179416e+05	(1.55044218982664e+01dB,-2.04115404247238e+01°)
1.41253754462274e+05	(1.53872139633887e+01dB,-2.27090025130816e+01°)
1.58489319246110e+05	(1.52439970639012e+01dB,-2.52168166085010e+01°)
1.77827941003891e+05	(1.50701319789611e+01dB,-2.79381293706977e+01°)
1.99526231496886e+05	(1.48606559134448e+01dB,-3.08709377935635e+01°)
2.23872113856832e+05	(1.46104708818390e+01dB,-3.40070361100400e+01°)
2.51188643150956e+05	(1.43146050892986e+01dB,-3.73312848940249e+01°)
2.81838293126443e+05	(1.39685330899755e+01dB,-4.08214335097066e+01°)
3.16227766016835e+05	(1.35685219782995e+01dB,-4.44486949250839e+01°)
3.54813389233572e+05	(1.31119545816983e+01dB,-4.81791674162983e+01°)
3.98107170553494e+05	(1.25975737612277e+01dB,-5.19760312593177e+01°)
4.46683592150959e+05	(1.20256000758395e+01dB,-5.58022641852162e+01°)
5.01187233627268e+05	(1.13976984331215e+01dB,-5.96234823287190e+01°)
5.62341325190344e+05	(1.07168012954236e+01dB,-6.34104791837379e+01°)
6.30957344480187e+05	(9.98682566893810e+00dB,-6.71411187803299e+01°)
7.07945784384131e+05	(9.21233881381686e+00dB,-7.08014068870213e+01°)
7.94328234724274e+05	(8.39822951449570e+00dB,-7.43857526743240e+01°)
8.91250938133737e+05	(7.54943059486157e+00dB,-7.78965851425513e+01°)
9.99999999999990e+05	(6.67072068598174e+00dB,-8.13435753072585e+01°)
1.12201845430195e+06	(5.76661540474379e+00dB,-8.47427408203791e+01°)
1.25892541179415e+06	(4.84134361475509e+00dB,-8.81156980414308e+01°)
1.41253754462274e+06	(3.89889353057468e+00dB,-9.14893036136903e+01°)
1.58489319246110e+06	(2.94310396789853e+00dB,-9.48959098474570e+01°)
1.77827941003891e+06	(1.97776500025532e+00dB,-9.83744484408861e+01°)
1.99526231496886e+06	(1.00667678526658e+00dB,-1.01972546410991e+02°)
2.23872113856832e+06	(3.35927834908206e-02dB,-1.05749851078544e+02°)
2.51188643150955e+06	(-9.38059698126537e-01dB,-1.09782676772016e+02°)
2.81838293126442e+06	(-1.90584061012360e+00dB,-1.14169941214041e+02°)
3.16227766016835e+06	(-2.86958385212643e+00dB,-1.19040004401886e+02°)
3.54813389233572e+06	(-3.83368539715042e+00dB,-1.24557091503928e+02°)
3.98107170553493e+06	(-4.81091783520446e+00dB,-1.30923627141048e+02°)
4.46683592150958e+06	(-5.82824858576344e+00dB,-1.38369590949936e+02°)
5.01187233627267e+06	(-6.93418093330794e+00dB,-1.47111184057808e+02°)
5.50000000000000e+06	(-7.94205345062133e+00dB,-1.55193068990717e+02°)
